No size specified (using byte-data access)
     0  1  2  3  4  5  6  7  8  9  a  b  c  d  e  f    0123456789abcdef
00: 01 00 ff 00 00 00 00 00 50 4c 00 00 00 00 00 00    ?.......PL......
10: 00 00 00 00 36 39 39 2d 38 32 38 38 38 2d 30 30    ....699-82888-00
20: 30 34 2d 34 30 30 20 4c 2e 30 00 00 00 00 00 00    04-400 L.0......
30: 00 00 ff ff ff ff ff ff ff ff ff ff ff ff ff ff    ................
40: ff ff ff ff 36 4b 18 2d b0 48 31 34 32 33 32 32    ....6K?-?H142322
50: 30 30 30 38 33 34 34 00 00 00 00 00 00 00 00 00    0008344.........
60: 00 00 00 00 00 00 00 00 00 00 00 00 00 00 00 00    ................
70: 00 00 00 00 00 00 00 00 00 00 00 00 00 00 00 00    ................
80: 00 00 00 00 00 00 00 00 00 00 00 00 00 00 00 00    ................
90: 00 00 00 00 00 00 4e 56 43 42 1c 00 4d 31 00 00    ......NVCB?.M1..
a0: ff ff ff ff ff ff ff ff ff ff ff ff 36 4b 18 2d    ............6K?-
b0: b0 48 00 00 00 00 00 00 00 00 00 00 00 00 00 00    ?H..............
c0: 00 00 00 00 00 00 00 00 00 00 00 00 00 00 00 00    ................
d0: 00 00 00 00 00 00 00 00 00 00 00 00 00 00 00 00    ................
e0: 00 00 00 00 00 00 00 00 00 00 00 00 00 00 00 00    ................
f0: 00 00 00 00 00 00 00 00 00 00 00 00 00 00 00 ca    ...............?
